VERSION
7

COMMSETTINGS
0
8
2
115200
2
0
4
2
0

COMMDISPLAY
0

SEND
0

11 03 00 6B 00 03 76 87
0
5

SEND
1

15 25 65 46
0
5

SEND
2

01 03 00 85 00 0A D4 24
1
.01

SEND
3

01 06 00 01 00 03 98 0B
0
5

SEND
4

01 10 00 02 00 03 06 00 11 02 03 01 01 8A A1
0
5

SEND
5

01 03 00 00 00 0F 05 CE
0
5

SEND
6

01 04 00 00 00 0F B0 0E
0
5

SEND
7

01 03 00 08 00 0F 84 0C
0
5

SEND
8

01 04 00 08 00 0F 31 CC
0
5

SEND
9
тестовое воздействие мпп1
01 10 05 71 00 07 0E 01 00 00 10 00 00 03 00 02 00 10 00 01 00 92 22
0
5

SEND
10
тестовое воздействие мпп2
01 10 05 78 00 07 0E 01 00 00 00 FF 0F 03 00 02 00 10 00 01 00 61 7F
0
5

SEND
11
тестовое воздействие мпп11
01 10 05 71 00 07 0E 01 00 00 00 FF 0F 03 00 02 00 10 00 01 00 B2 E1
0
5

